vout	I(Vout_C)	I(Vout_S)
-6.000000000000000e-01	2.014412e-05	2.214324e-05
-5.900000000000000e-01	2.014126e-05	2.209576e-05
-5.800000000000000e-01	2.013839e-05	2.204828e-05
-5.700000000000000e-01	2.013550e-05	2.200079e-05
-5.599999999999999e-01	2.013261e-05	2.195330e-05
-5.499999999999999e-01	2.012970e-05	2.190580e-05
-5.400000000000000e-01	2.012678e-05	2.185830e-05
-5.300000000000000e-01	2.012384e-05	2.181079e-05
-5.200000000000000e-01	2.012089e-05	2.176328e-05
-5.100000000000000e-01	2.011794e-05	2.171576e-05
-5.000000000000000e-01	2.011496e-05	2.166824e-05
-4.900000000000000e-01	2.011198e-05	2.162071e-05
-4.800000000000000e-01	2.010898e-05	2.157318e-05
-4.700000000000000e-01	2.010597e-05	2.152564e-05
-4.600000000000000e-01	2.010294e-05	2.147809e-05
-4.500000000000000e-01	2.009990e-05	2.143053e-05
-4.399999999999999e-01	2.009685e-05	2.138298e-05
-4.299999999999999e-01	2.009378e-05	2.133541e-05
-4.200000000000000e-01	2.009071e-05	2.128783e-05
-4.100000000000000e-01	2.008761e-05	2.124025e-05
-4.000000000000000e-01	2.008450e-05	2.119266e-05
-3.900000000000000e-01	2.008138e-05	2.114506e-05
-3.800000000000000e-01	2.007825e-05	2.109745e-05
-3.700000000000000e-01	2.007510e-05	2.104983e-05
-3.600000000000000e-01	2.007193e-05	2.100221e-05
-3.500000000000000e-01	2.006875e-05	2.095457e-05
-3.400000000000000e-01	2.006556e-05	2.090693e-05
-3.300000000000000e-01	2.006235e-05	2.085927e-05
-3.200000000000000e-01	2.005913e-05	2.081160e-05
-3.100000000000000e-01	2.005589e-05	2.076392e-05
-3.000000000000000e-01	2.005264e-05	2.071623e-05
-2.900000000000000e-01	2.004937e-05	2.066852e-05
-2.800000000000000e-01	2.004608e-05	2.062081e-05
-2.700000000000000e-01	2.004278e-05	2.057308e-05
-2.600000000000000e-01	2.003947e-05	2.052533e-05
-2.499999999999999e-01	2.003614e-05	2.047757e-05
-2.400000000000000e-01	2.003279e-05	2.042979e-05
-2.300000000000000e-01	2.002942e-05	2.038200e-05
-2.200000000000000e-01	2.002604e-05	2.033419e-05
-2.100000000000000e-01	2.002264e-05	2.028636e-05
-2.000000000000000e-01	2.001923e-05	2.023851e-05
-1.899999999999999e-01	2.001580e-05	2.019064e-05
-1.800000000000000e-01	2.001235e-05	2.014275e-05
-1.700000000000000e-01	2.000888e-05	2.009484e-05
-1.600000000000000e-01	2.000540e-05	2.004691e-05
-1.500000000000000e-01	2.000189e-05	1.999895e-05
-1.400000000000000e-01	1.999837e-05	1.995096e-05
-1.299999999999999e-01	1.999483e-05	1.990295e-05
-1.200000000000000e-01	1.999127e-05	1.985490e-05
-1.100000000000000e-01	1.998769e-05	1.980683e-05
-9.999999999999998e-02	1.998409e-05	1.975872e-05
-8.999999999999997e-02	1.998048e-05	1.971058e-05
-7.999999999999996e-02	1.997683e-05	1.966241e-05
-6.999999999999995e-02	1.997317e-05	1.961419e-05
-5.999999999999994e-02	1.996949e-05	1.956593e-05
-4.999999999999993e-02	1.996578e-05	1.951763e-05
-3.999999999999992e-02	1.996205e-05	1.946928e-05
-2.999999999999992e-02	1.995830e-05	1.942088e-05
-2.000000000000002e-02	1.995453e-05	1.937243e-05
-1.000000000000001e-02	1.995072e-05	1.932392e-05
0.000000000000000e+00	1.994689e-05	1.927535e-05
1.000000000000001e-02	1.994302e-05	1.922671e-05
2.000000000000002e-02	1.993913e-05	1.917800e-05
3.000000000000003e-02	1.993521e-05	1.912921e-05
4.000000000000004e-02	1.993125e-05	1.908034e-05
5.000000000000004e-02	1.992726e-05	1.903138e-05
6.000000000000005e-02	1.992325e-05	1.898233e-05
7.000000000000006e-02	1.991916e-05	1.893316e-05
8.000000000000007e-02	1.991503e-05	1.888389e-05
9.000000000000008e-02	1.991086e-05	1.883448e-05
1.000000000000001e-01	1.990663e-05	1.878494e-05
1.100000000000000e-01	1.990234e-05	1.873525e-05
1.200000000000000e-01	1.989798e-05	1.868539e-05
1.300000000000000e-01	1.989354e-05	1.863534e-05
1.400000000000000e-01	1.988900e-05	1.858510e-05
1.500000000000000e-01	1.988435e-05	1.853463e-05
1.600000000000000e-01	1.987957e-05	1.848390e-05
1.700000000000000e-01	1.987463e-05	1.843289e-05
1.800000000000000e-01	1.986950e-05	1.838156e-05
1.900000000000001e-01	1.986414e-05	1.832988e-05
2.000000000000001e-01	1.985847e-05	1.827779e-05
2.100000000000001e-01	1.985243e-05	1.822523e-05
2.200000000000001e-01	1.984590e-05	1.817213e-05
2.300000000000001e-01	1.983871e-05	1.811842e-05
2.400000000000000e-01	1.983067e-05	1.806399e-05
2.500000000000000e-01	1.982144e-05	1.800873e-05
2.600000000000000e-01	1.981061e-05	1.795248e-05
2.700000000000000e-01	1.979756e-05	1.789505e-05
2.800000000000000e-01	1.978138e-05	1.783623e-05
2.900000000000000e-01	1.976089e-05	1.777572e-05
3.000000000000000e-01	1.973446e-05	1.771315e-05
3.100000000000001e-01	1.970004e-05	1.764805e-05
3.200000000000001e-01	1.965515e-05	1.757981e-05
3.300000000000001e-01	1.959702e-05	1.750764e-05
3.400000000000001e-01	1.952265e-05	1.743049e-05
3.500000000000001e-01	1.942886e-05	1.734699e-05
3.600000000000000e-01	1.931246e-05	1.725532e-05
3.700000000000000e-01	1.916999e-05	1.715310e-05
3.800000000000000e-01	1.899783e-05	1.703721e-05
3.900000000000000e-01	1.879209e-05	1.690362e-05
4.000000000000000e-01	1.854860e-05	1.674733e-05
4.100000000000000e-01	1.826303e-05	1.656226e-05
4.200000000000000e-01	1.793087e-05	1.634138e-05
4.300000000000000e-01	1.754759e-05	1.607705e-05
4.400000000000001e-01	1.710872e-05	1.576138e-05
4.500000000000001e-01	1.660996e-05	1.538682e-05
4.600000000000001e-01	1.604730e-05	1.494650e-05
4.700000000000001e-01	1.541701e-05	1.443452e-05
4.800000000000001e-01	1.471574e-05	1.384604e-05
4.900000000000001e-01	1.394052e-05	1.317723e-05
5.000000000000001e-01	1.308875e-05	1.242509e-05
5.100000000000001e-01	1.215817e-05	1.158731e-05
5.200000000000001e-01	1.114685e-05	1.066215e-05
5.300000000000001e-01	1.005316e-05	9.648249e-06
5.400000000000001e-01	8.875734e-06	8.544554e-06
5.500000000000002e-01	7.613409e-06	7.350239e-06
5.599999999999999e-01	6.265228e-06	6.064648e-06
5.700000000000000e-01	4.830398e-06	4.687243e-06
5.800000000000000e-01	3.308261e-06	3.217577e-06
5.900000000000000e-01	1.698276e-06	1.655272e-06
6.000000000000000e-01	0.000000e+00	0.000000e+00
